! Sonnet Data File
! From: sonnet Version : 19.01.2024
! From Emgraph Data: 
! Data File Written: 08/28/2024 20:46:21
!< HDATE 08/28/2024 20:45:47
!< MDATE 08/28/2024 20:45:47
# GHZ S MA R 50.00000
0.050000000000000 0.0490658673679 -119.7708906503 0.9792817767980 -34.59626843657 0.9792784865572 -34.42948866669 0.0504833686815 -112.8711890040
0.150000000000000 0.0882970990366 158.63270603809 0.9542590072322 -101.4360451325 0.9538855668259 -101.2739697090 0.0923543456396 -173.0584605477
0.250000000000000 0.0371062338467 27.166248098193 0.9400640846775 -167.9773522447 0.9397095495894 -167.8405880577 0.0484637416992 179.82572222700
0.350000000000000 0.1092291401433 -123.6446892977 0.9178536591676 125.53450025077 0.9175824338782 125.63319161367 0.1137950064780 -170.1152869626
0.450000000000000 0.1314965840805 166.92847432929 0.9010305884551 59.936677295053 0.9004438021123 60.060234452207 0.1304701746882 134.18253848824
0.550000000000000 0.0603525093836 135.50025336349 0.8934157136160 -6.066616781386 0.8930627985072 -5.939191418178 0.0432084548779 50.286545444593
0.650000000000000 0.0936933220346 161.63166710001 0.8761685501672 -72.20233758753 0.8747646474441 -72.12504111185 0.0851595054925 -138.3811471295
0.750000000000000 0.1135012506347 108.96916406823 0.8603829261169 -137.7444010657 0.8597960292100 -137.5715613101 0.1140846876210 158.35522055032
0.850000000000000 0.0280064909517 37.268466005666 0.8521399471429 156.43666260522 0.8519077883860 156.53386202207 0.0458267794093 134.06979936649
0.950000000000000 0.0799177392808 163.45400984853 0.8360923380082 90.462564574815 0.8361481019800 90.591498718793 0.0876590722117 177.33383999417
1.050000000000000 0.0999538538247 96.468037158028 0.8220584023777 24.995401236353 0.8226237507200 25.101982067824 0.1047134697309 135.47842663678
1.150000000000000 0.0185039206606 28.142676108425 0.8135625153315 -40.73749465151 0.8135319913924 -40.61695844598 0.0443631252240 128.56099045444
1.250000000000000 0.0759166689272 145.48335646909 0.7989778011470 -106.5984536822 0.7992720281442 -106.4870452370 0.0870615452174 158.82164178952
1.350000000000000 0.0860264150465 78.400312248373 0.7867564650590 -172.0260754338 0.7867316375572 -171.8967943704 0.0937790374270 122.59323493240
1.450000000000000 0.0040979091574 -18.35338802569 0.7776109587978 122.21883027869 0.7775168720085 122.32262361183 0.0467122303321 134.62569602627
1.550000000000000 0.0806330670336 128.27291544025 0.7629294988307 56.458835864274 0.7626488829727 56.601970010578 0.0954808933743 144.58962898665
1.650000000000000 0.0800614933209 60.025872509279 0.7520124528458 -8.928039333273 0.7522715313092 -8.778980568915 0.0924553741764 111.90775585951
1.750000000000000 0.0075607007704 -141.7782974449 0.7429756055503 -74.72424064013 0.7428160503445 -74.59120720481 0.0592889639674 126.81419214121
1.850000000000000 0.0811536350353 114.42001673182 0.7297297155746 -140.3427301589 0.7295243927149 -140.2464401453 0.0989658208670 126.26957358497
1.950000000000000 0.0670561224535 47.529536909974 0.7199913767664 154.12674933280 0.7201164055842 154.23030262072 0.0845395878644 100.01062326496
2.050000000000000 0.0188883565405 164.66967233473 0.7101545486168 88.282006825657 0.7101358395470 88.415998081097 0.0620954999395 123.31457371281
2.150000000000000 0.0829526554893 96.934913286071 0.6975131215705 22.634857724094 0.6978639712497 22.785255946682 0.1013582295427 114.91083783965
2.250000000000000 0.0529873866374 32.334446362409 0.6886847472675 -42.84372046785 0.6888044209459 -42.72777877254 0.0792613130318 93.608478561247
2.350000000000000 0.0351583533485 144.20292397330 0.6788631651360 -108.7882084385 0.6790475441453 -108.6502741655 0.0747064672546 118.16081786287
2.450000000000000 0.0833662481624 81.653440787402 0.6665031166126 -174.4555427990 0.6668234735262 -174.3221988652 0.1045419226142 102.26602435491
2.550000000000000 0.0383962756673 23.155472220982 0.6594255335889 119.89915023729 0.6591713082440 119.99300082907 0.0742919302139 90.076460538865
2.650000000000000 0.0520036855689 124.03142775318 0.6483109647336 53.849363826867 0.6485564212146 54.001073868198 0.0884042856232 112.31095869815
2.750000000000000 0.0869718609632 63.495182436592 0.6373248098756 -11.73956060585 0.6367514854864 -11.60172239236 0.1132846272834 92.125478757944
2.850000000000000 0.0306565389847 4.3407786725418 0.6304003130381 -77.54559226835 0.6303511297928 -77.44479644684 0.0824556158621 84.361508444770
2.950000000000000 0.0539688830297 110.66976877460 0.6196552604050 -143.6003757489 0.6195094942145 -143.4620516828 0.0975760468954 97.724204825386
3.050000000000000 0.0732240477152 48.424590571343 0.6101397348653 150.70312343412 0.6101040516810 150.82186643855 0.1083300920122 81.621874303777
3.150000000000000 0.0067201029985 -33.39635663473 0.6022536906416 84.691098815900 0.6023263313405 84.775609634560 0.0872925369885 83.960014892391
3.250000000000000 0.0689847914428 103.39439058710 0.5913736768524 18.658700118135 0.5916700069373 18.773102775155 0.1129895761024 86.067890837814
3.350000000000000 0.0635941017988 40.173320867794 0.5833158578447 -47.19460134802 0.5833907454278 -47.10834171332 0.1080986168820 69.968747422705
3.450000000000000 0.0157210047874 142.77590736780 0.5754110388384 -113.4205089367 0.5756805105551 -113.3761737820 0.0955892464134 78.429060974321
3.550000000000000 0.0809302949138 91.546028430061 0.5646998311155 -179.4718509410 0.5644286342651 -179.3440031211 0.1229051954663 72.456413229397
3.650000000000000 0.0577924079829 38.593029078153 0.5578446115103 114.51250072833 0.5577264848210 114.65178045070 0.1034918107147 57.013136494621
3.750000000000000 0.0356511290553 110.20724297467 0.5500465663515 48.155280269496 0.5498302271716 48.260860975851 0.0939279914042 72.319553688389
3.850000000000000 0.0817479713473 71.868633567792 0.5398632707524 -18.01452788295 0.5399385937613 -17.89883124494 0.1211419331007 64.170179827721
3.950000000000000 0.0417223185188 33.092014726969 0.5331227032161 -84.21899427593 0.5332300259556 -84.11665282435 0.0989614679046 55.630796630556
4.050000000000000 0.0573383601475 103.03539284599 0.5246092973755 -150.7688425489 0.5244645825158 -150.6404024203 0.1116696601845 69.008710092523
4.150000000000000 0.0895442027646 59.238111310398 0.5149651867282 143.09518032487 0.5150574198536 143.23658738112 0.1326547176006 53.870025863081
4.250000000000000 0.0351700214064 37.449684654233 0.5094501819106 76.653777897046 0.5090744756871 76.758535288351 0.1047217944868 49.850836088350
4.350000000000001 0.0748334519180 90.141184604549 0.4999530902421 9.9780515820979 0.4997865136590 10.115544744470 0.1280445363862 58.209998106567
4.450000000000000 0.0898783733507 47.604539568821 0.4919978730988 -56.26602275410 0.4916920956658 -56.12883360437 0.1358509674473 41.791578036216
4.550000000000001 0.0356506539931 58.902431375241 0.4858966587626 -123.0325128188 0.4858025016107 -122.8926004512 0.1105747392048 45.275558336466
4.650000000000000 0.0947495942279 76.164717213256 0.4762267514627 170.27153301524 0.4762763925568 170.37008726911 0.1436455281838 46.331062371147
4.750000000000000 0.0927864113235 38.397942885031 0.4692421539975 103.80411863456 0.4690278821414 103.93280132529 0.1372448606914 29.759490480291
4.850000000000001 0.0550331351673 63.691740328239 0.4626768021640 36.857065441546 0.4627698240790 37.006047871467 0.1153036270955 38.925865147897
4.950000000000000 0.1107964296985 56.427071624936 0.4532580026291 -29.95506878662 0.4531521288167 -29.81533215590 0.1545291077434 36.217966510645
5.050000000000001 0.0885336689135 25.015501805896 0.4472174019967 -96.60561614967 0.4473065130420 -96.49395450348 0.1429937628125 21.537967529211
5.150000000000000 0.0664356915966 62.309059861226 0.4408202219297 -163.8268019931 0.4405929675540 -163.7332350452 0.1334853902662 29.433000977972
5.250000000000000 0.1208440469271 45.997880225674 0.4317402355213 129.27947611443 0.4317099379206 129.38745175678 0.1647003791181 20.656802359813
5.350000000000001 0.0890873418938 24.409095058104 0.4265647817947 62.314382451055 0.4265778379269 62.444120265546 0.1371680009141 9.7277164043678
5.450000000000000 0.0976125688013 52.487414800302 0.4193510461157 -5.093745710644 0.4192193889849 -4.975335417082 0.1441790105202 21.615058925678
5.550000000000001 0.1398040605390 30.695603222685 0.4108179220655 -72.05048150038 0.4105184479032 -71.89832506441 0.1729469968529 7.4321004081507
5.650000000000000 0.1000028677509 16.977977201145 0.4065111359802 -139.2717353266 0.4064984609518 -139.1145635537 0.1339646665767 -0.185572305875
5.750000000000000 0.1212827644519 35.053102479774 0.3986511306051 153.00299927202 0.3984623057235 153.12315966755 0.1527998272714 11.872472150230
5.850000000000001 0.1453393113269 13.031684079570 0.3908764599676 85.818160234528 0.3911595201960 85.957547906531 0.1736423822508 -3.508335489881
5.950000000000000 0.1035487340010 10.667547932311 0.3871025435437 18.164443461530 0.3873212672664 18.294565437108 0.1393358484891 -4.840221478318
6.050000000000001 0.1429214531043 20.063867660114 0.3785279079284 -49.69186200533 0.3784792263008 -49.51443631491 0.1736186201774 0.3211344341890
6.150000000000000 0.1515014275849 -2.342830657080 0.3725539467776 -116.9159397544 0.3724128893387 -116.7606228804 0.1817816009789 -15.92978594917
6.249999999999991 0.1126454838322 1.7718695165658 0.3681670897503 175.11312433862 0.3680548322363 175.26086730565 0.1521936186961 -14.67820217547
6.349999999999991 0.1566728806499 4.1338802684277 0.3590491519112 107.16391201604 0.3591032619794 107.27878032320 0.1875928942046 -15.05937365836
6.449999999999991 0.1515375310275 -15.60292530010 0.3532549387588 39.562670219462 0.3531610474156 39.705481779847 0.1818596469281 -30.22601709993
6.549999999999991 0.1259299392274 -6.607314280656 0.3481104104809 -28.82293587163 0.3480030049290 -28.66981728133 0.1600071760108 -25.53747570185
6.649999999999991 0.1725886510159 -10.63145718586 0.3397884125520 -97.05534214530 0.3397479110948 -96.87216524653 0.1967455091312 -30.36420091931
6.749999999999991 0.1578056875905 -26.91759459289 0.3353469935000 -165.1044025166 0.3353241422774 -164.9403856329 0.1768170875920 -43.60678939201
6.849999999999991 0.1508367228109 -18.29693055562 0.3295170588122 126.19019833015 0.3293201552818 126.32368749202 0.1682917020833 -35.88410036801
6.949999999999991 0.1909956587033 -28.96144921945 0.3209845006560 58.133647585289 0.3207914810081 58.250932378148 0.2044763451750 -45.02380934690
7.049999999999991 0.1636190692696 -41.30950024455 0.3170840002334 -9.973537300811 0.3166634786544 -9.855147969666 0.1748215023022 -55.64230374633
7.149999999999991 0.1723490726054 -34.19410264176 0.3093965754984 -78.93206567698 0.3093933979365 -78.77234053737 0.1819432949987 -48.69756138492
7.249999999999991 0.1988339816299 -48.29835091973 0.2994801003241 -147.3771100599 0.2993369375623 -147.2057127213 0.2066371761732 -61.06626693727
7.349999999999991 0.1640467449576 -53.85614438182 0.2933785557170 143.65380243825 0.2933397208671 143.82550822484 0.1744274846365 -66.75013432058
7.449999999999991 0.1953473646578 -49.22900913501 0.2832938908434 74.110955393120 0.2833212352065 74.315240122762 0.1974918668271 -63.39611920331
7.549999999999991 0.2104251016532 -65.91972898863 0.2756231398726 5.4841860132379 0.2755115330113 5.6572699384770 0.2074834805668 -78.44797967102
7.649999999999991 0.1796701252097 -68.06469592470 0.2722036159672 -63.90473162226 0.2720922228322 -63.75687447317 0.1692438123415 -80.20402013367
7.749999999999991 0.2140110335176 -69.71941673134 0.2645854785743 -133.0767911337 0.2645403551316 -132.9099668323 0.1964777132416 -77.48217091972
7.849999999999991 0.2117114237826 -84.84313158710 0.2602773223934 158.78524361218 0.2597910866414 158.91325647447 0.1946148882598 -89.84359342729
7.949999999999991 0.1880943338528 -84.49275948527 0.2547416416173 89.882455011749 0.2546465121773 89.983661713018 0.1786013082736 -83.93281227363
8.049999999999992 0.2146741682829 -88.03746257626 0.2465572828293 21.921466747720 0.2464422330962 22.089431524722 0.2274388472273 -88.65251821223
8.149999999999991 0.2062357937220 -97.45667988884 0.2434286719860 -46.78725389301 0.2436723660622 -46.58766759385 0.2202300632476 -100.4011599694
8.249999999999991 0.2145507362610 -94.33616824920 0.2341688627775 -116.9936423940 0.2341804034062 -116.7980718684 0.2310303630813 -98.42396248998
8.349999999999991 0.2567906505923 -105.2584134864 0.2227401689974 174.08714240117 0.2229122472624 174.27744258840 0.2734933277534 -110.8336699902
8.449999999999990 0.2352721643909 -117.3453376897 0.2193110355106 104.40767753928 0.2191967939243 104.55482453557 0.2453452875220 -123.4073632132
8.500000000000000 0.2267292809809 -116.5527260922 0.2168001322172 68.676994185526 0.2170097181631 68.875099207523 0.2338588079823 -122.7354269701
